Frequency	S11(dB)	S21(dB)
1.095000000000000107e+01	-2.296331370640456171e-01	-1.287824437009713208e+01
1.095355000000000167e+01	-2.299906262405106983e-01	-1.287193400928082987e+01
1.095710000000000051e+01	-2.303480853230708281e-01	-1.286562917077703005e+01
1.096065000000000111e+01	-2.307055171803578109e-01	-1.285932984329853035e+01
1.096420000000000172e+01	-2.310629246605139797e-01	-1.285303601558810982e+01
1.096775000000000055e+01	-2.314203105913037739e-01	-1.284674767641846849e+01
1.097130000000000116e+01	-2.317776777802351973e-01	-1.284046481459210121e+01
1.097485000000000177e+01	-2.321350290146684814e-01	-1.283418741894129589e+01
1.097840000000000060e+01	-2.324923670619435945e-01	-1.282791547832800205e+01
1.098195000000000121e+01	-2.328496946694839087e-01	-1.282164898164377398e+01
1.098550000000000182e+01	-2.332070145649189630e-01	-1.281538791780970676e+01
1.098905000000000065e+01	-2.335643294561900452e-01	-1.280913227577634217e+01
1.099260000000000126e+01	-2.339216420316730660e-01	-1.280288204452359579e+01
1.099615000000000187e+01	-2.342789549602844468e-01	-1.279663721306070201e+01
1.099970000000000070e+01	-2.346362708915968043e-01	-1.279039777042610915e+01
1.100325000000000131e+01	-2.349935924559401201e-01	-1.278416370568741733e+01
1.100680000000000192e+01	-2.353509222645412402e-01	-1.277793500794130388e+01
1.101035000000000075e+01	-2.357082629095924586e-01	-1.277171166631344690e+01
1.101390000000000136e+01	-2.360656169644009816e-01	-1.276549366995843648e+01
1.101745000000000019e+01	-2.364229869834684472e-01	-1.275928100805971077e+01
1.102100000000000080e+01	-2.367803755026166579e-01	-1.275307366982947599e+01
1.102455000000000140e+01	-2.371377850390940234e-01	-1.274687164450862120e+01
1.102810000000000024e+01	-2.374952180916755640e-01	-1.274067492136666324e+01
1.103165000000000084e+01	-2.378526771407771800e-01	-1.273448348970163480e+01
1.103520000000000145e+01	-2.382101646485540736e-01	-1.272829733884004000e+01
1.103875000000000028e+01	-2.385676830590198194e-01	-1.272211645813676029e+01
1.104230000000000089e+01	-2.389252347981347946e-01	-1.271594083697496558e+01
1.104585000000000150e+01	-2.392828222739295796e-01	-1.270977046476607342e+01
1.104940000000000033e+01	-2.396404478765903623e-01	-1.270360533094963174e+01
1.105295000000000094e+01	-2.399981139785773987e-01	-1.269744542499325668e+01
1.105650000000000155e+01	-2.403558229347264596e-01	-1.269129073639256866e+01
1.106005000000000038e+01	-2.407135770823325138e-01	-1.268514125467108400e+01
1.106360000000000099e+01	-2.410713787412829545e-01	-1.267899696938016341e+01
1.106715000000000160e+01	-2.414292302141385349e-01	-1.267285787009892140e+01
1.107070000000000043e+01	-2.417871337862348702e-01	-1.266672394643415345e+01
1.107425000000000104e+01	-2.421450917257900459e-01	-1.266059518802024542e+01
1.107780000000000165e+01	-2.425031062840063978e-01	-1.265447158451910958e+01
1.108135000000000048e+01	-2.428611796951591906e-01	-1.264835312562011183e+01
1.108490000000000109e+01	-2.432193141767034494e-01	-1.264223980103995792e+01
1.108845000000000169e+01	-2.435775119293726587e-01	-1.263613160052266160e+01
1.109200000000000053e+01	-2.439357751372727978e-01	-1.263002851383943970e+01
1.109555000000000113e+01	-2.442941059679878679e-01	-1.262393053078862515e+01
1.109910000000000174e+01	-2.446525065726651016e-01	-1.261783764119561724e+01
1.110265000000000057e+01	-2.450109790861178527e-01	-1.261174983491278034e+01
1.110620000000000118e+01	-2.453695256269243508e-01	-1.260566710181936756e+01
1.110975000000000179e+01	-2.457281482975249010e-01	-1.259958943182144964e+01
1.111330000000000062e+01	-2.460868491842968520e-01	-1.259351681485184393e+01
1.111685000000000123e+01	-2.464456303576806062e-01	-1.258744924087000783e+01
1.112040000000000184e+01	-2.468044938722487314e-01	-1.258138669986199076e+01
1.112395000000000067e+01	-2.471634417668132078e-01	-1.257532918184034010e+01
1.112750000000000128e+01	-2.475224760645082511e-01	-1.256927667684401584e+01
1.113105000000000189e+01	-2.478815987728988646e-01	-1.256322917493833558e+01
1.113460000000000072e+01	-2.482408118840508104e-01	-1.255718666621487678e+01
1.113815000000000133e+01	-2.486001173746349435e-01	-1.255114914079139332e+01
1.114170000000000194e+01	-2.489595172060323214e-01	-1.254511658881176572e+01
1.114525000000000077e+01	-2.493190133243888829e-01	-1.253908900044589458e+01
1.114880000000000138e+01	-2.496786076607461768e-01	-1.253306636588962419e+01
1.115235000000000198e+01	-2.500383021311002874e-01	-1.252704867536468747e+01
1.115590000000000082e+01	-2.503980986365079153e-01	-1.252103591911860114e+01
1.115945000000000142e+01	-2.507579990631717548e-01	-1.251502808742460360e+01
1.116300000000000026e+01	-2.511180052825200404e-01	-1.250902517058157315e+01
1.116655000000000086e+01	-2.514781191513150715e-01	-1.250302715891394634e+01
1.117010000000000147e+01	-2.518383425117175500e-01	-1.249703404277163266e+01
1.117365000000000030e+01	-2.521986771913860004e-01	-1.249104581252996837e+01
1.117720000000000091e+01	-2.525591250035678081e-01	-1.248506245858959929e+01
1.118075000000000152e+01	-2.529196877471690530e-01	-1.247908397137641856e+01
1.118430000000000035e+01	-2.532803672068646428e-01	-1.247311034134150454e+01
1.118785000000000096e+01	-2.536411651531569889e-01	-1.246714155896101417e+01
1.119140000000000157e+01	-2.540020833424790903e-01	-1.246117761473612973e+01
1.119495000000000040e+01	-2.543631235172748029e-01	-1.245521849919296820e+01
1.119850000000000101e+01	-2.547242874060811069e-01	-1.244926420288250668e+01
1.120205000000000162e+01	-2.550855767236112071e-01	-1.244331471638049891e+01
1.120560000000000045e+01	-2.554469931708428510e-01	-1.243737003028742194e+01
1.120915000000000106e+01	-2.558085384350885505e-01	-1.243143013522836426e+01
1.121270000000000167e+01	-2.561702141901009977e-01	-1.242549502185297960e+01
1.121625000000000050e+01	-2.565320220961300191e-01	-1.241956468083538390e+01
1.121980000000000111e+01	-2.568939638000216075e-01	-1.241363910287409844e+01
1.122335000000000171e+01	-2.572560409352864785e-01	-1.240771827869196287e+01
1.122690000000000055e+01	-2.576182551221949946e-01	-1.240180219903606940e+01
1.123045000000000115e+01	-2.579806079678423902e-01	-1.239589085467765983e+01
1.123400000000000176e+01	-2.583431010662453620e-01	-1.238998423641208113e+01
1.123755000000000059e+01	-2.587057359983983007e-01	-1.238408233505870015e+01
1.124110000000000120e+01	-2.590685143323868123e-01	-1.237818514146079352e+01
1.124465000000000181e+01	-2.594314376234254649e-01	-1.237229264648554050e+01
1.124820000000000064e+01	-2.597945074139690336e-01	-1.236640484102387738e+01
1.125175000000000125e+01	-2.601577252337770596e-01	-1.236052171599045479e+01
1.125530000000000186e+01	-2.605210925999937865e-01	-1.235464326232356669e+01
1.125885000000000069e+01	-2.608846110172171051e-01	-1.234876947098506506e+01
1.126240000000000130e+01	-2.612482819775929221e-01	-1.234290033296027289e+01
1.126595000000000191e+01	-2.616121069608791094e-01	-1.233703583925793446e+01
1.126950000000000074e+01	-2.619760874345206658e-01	-1.233117598091012823e+01
1.127305000000000135e+01	-2.623402248537249903e-01	-1.232532074897216390e+01
1.127660000000000196e+01	-2.627045206615540307e-01	-1.231947013452256456e+01
1.128015000000000079e+01	-2.630689762889754646e-01	-1.231362412866295131e+01
1.128370000000000140e+01	-2.634335931549529608e-01	-1.230778272251796679e+01
1.128725000000000023e+01	-2.637983726665115713e-01	-1.230194590723522374e+01
1.129080000000000084e+01	-2.641633162188196660e-01	-1.229611367398520549e+01
1.129435000000000144e+01	-2.645284251952577104e-01	-1.229028601396121978e+01
1.129790000000000028e+01	-2.648937009674871557e-01	-1.228446291837929927e+01
1.130145000000000088e+01	-2.652591448955349818e-01	-1.227864437847813761e+01
1.130500000000000149e+01	-2.656247583278550373e-01	-1.227283038551901839e+01
1.130855000000000032e+01	-2.659905426014044783e-01	-1.226702093078573341e+01
1.131210000000000093e+01	-2.663564990417149891e-01	-1.226121600558451163e+01
1.131565000000000154e+01	-2.667226289629653357e-01	-1.225541560124396057e+01
1.131920000000000037e+01	-2.670889336680498105e-01	-1.224961970911496678e+01
1.132275000000000098e+01	-2.674554144486515073e-01	-1.224382832057063908e+01
1.132630000000000159e+01	-2.678220725853082129e-01	-1.223804142700623920e+01
1.132985000000000042e+01	-2.681889093474882357e-01	-1.223225901983908770e+01
1.133340000000000103e+01	-2.685559259936636245e-01	-1.222648109050851417e+01
1.133695000000000164e+01	-2.689231237713581857e-01	-1.222070763047577913e+01
1.134050000000000047e+01	-2.692905039172412973e-01	-1.221493863122399937e+01
1.134405000000000108e+01	-2.696580676571823099e-01	-1.220917408425805917e+01
1.134760000000000169e+01	-2.700258162063272627e-01	-1.220341398110456943e+01
1.135115000000000052e+01	-2.703937507691593911e-01	-1.219765831331177885e+01
1.135470000000000113e+01	-2.707618725395677939e-01	-1.219190707244948868e+01
1.135825000000000173e+01	-2.711301827009180987e-01	-1.218616025010901716e+01
1.136180000000000057e+01	-2.714986824261169662e-01	-1.218041783790308941e+01
1.136535000000000117e+01	-2.718673728776839216e-01	-1.217467982746579302e+01
1.136890000000000178e+01	-2.722362552078050335e-01	-1.216894621045248925e+01
1.137245000000000061e+01	-2.726053305584114628e-01	-1.216321697853975969e+01
1.137600000000000122e+01	-2.729746000612411905e-01	-1.215749212342531571e+01
1.137955000000000183e+01	-2.733440648378971383e-01	-1.215177163682794514e+01
1.138310000000000066e+01	-2.737137259999294359e-01	-1.214605551048743592e+01
1.138665000000000127e+01	-2.740835846488762773e-01	-1.214034373616449436e+01
1.139020000000000188e+01	-2.744536418763520724e-01	-1.213463630564069717e+01
1.139375000000000071e+01	-2.748238987640917452e-01	-1.212893321071840269e+01
1.139730000000000132e+01	-2.751943563840280049e-01	-1.212323444322068511e+01
1.140085000000000193e+01	-2.755650157983478010e-01	-1.211753999499127943e+01
1.140440000000000076e+01	-2.759358780595543847e-01	-1.211184985789449087e+01
1.140795000000000137e+01	-2.763069442105401397e-01	-1.210616402381513268e+01
1.141150000000000198e+01	-2.766782152846404275e-01	-1.210048248465847109e+01
1.141505000000000081e+01	-2.770496923056846583e-01	-1.209480523235013827e+01
1.141860000000000142e+01	-2.774213762880888279e-01	-1.208913225883606302e+01
1.142215000000000202e+01	-2.777932682368867701e-01	-1.208346355608242462e+01
1.142570000000000086e+01	-2.781653691478079837e-01	-1.207779911607556400e+01
1.142925000000000146e+01	-2.785376800073297021e-01	-1.207213893082191092e+01
1.143280000000000030e+01	-2.789102017927466148e-01	-1.206648299234794308e+01
1.143635000000000090e+01	-2.792829354722240476e-01	-1.206083129270008314e+01
1.143990000000000151e+01	-2.796558820048610228e-01	-1.205518382394466315e+01
1.144345000000000034e+01	-2.800290423407471030e-01	-1.204954057816784641e+01
1.144700000000000095e+01	-2.804024174210304476e-01	-1.204390154747553687e+01
1.145055000000000156e+01	-2.807760081779658856e-01	-1.203826672399335429e+01
1.145410000000000039e+01	-2.811498155349722028e-01	-1.203263609986653648e+01
1.145765000000000100e+01	-2.815238404067088029e-01	-1.202700966725987897e+01
1.146120000000000161e+01	-2.818980836991190619e-01	-1.202138741835766922e+01
1.146475000000000044e+01	-2.822725463094843956e-01	-1.201576934536363872e+01
1.146830000000000105e+01	-2.826472291265022529e-01	-1.201015544050086525e+01
1.147185000000000166e+01	-2.830221330303185345e-01	-1.200454569601171961e+01
1.147540000000000049e+01	-2.833972588925983138e-01	-1.199894010415781764e+01
1.147895000000000110e+01	-2.837726075765903966e-01	-1.199333865721992254e+01
1.148250000000000171e+01	-2.841481799371662897e-01	-1.198774134749790932e+01
1.148605000000000054e+01	-2.845239768208883135e-01	-1.198214816731068311e+01
1.148960000000000115e+01	-2.848999990660610049e-01	-1.197655910899610809e+01
1.149315000000000175e+01	-2.852762475027912359e-01	-1.197097416491096844e+01
1.149670000000000059e+01	-2.856527229530373413e-01	-1.196539332743088480e+01
1.150025000000000119e+01	-2.860294262306725122e-01	-1.195981658895023791e+01
1.150380000000000180e+01	-2.864063581415299820e-01	-1.195424394188213313e+01
1.150735000000000063e+01	-2.867835194834712498e-01	-1.194867537865832041e+01
1.151090000000000124e+01	-2.871609110464224401e-01	-1.194311089172912688e+01
1.151445000000000185e+01	-2.875385336124454128e-01	-1.193755047356340704e+01
1.151800000000000068e+01	-2.879163879557865013e-01	-1.193199411664846998e+01
1.152155000000000129e+01	-2.882944748429201454e-01	-1.192644181349000831e+01
1.152510000000000190e+01	-2.886727950326209435e-01	-1.192089355661205019e+01
1.152865000000000073e+01	-2.890513492760013459e-01	-1.191534933855689538e+01
1.153220000000000134e+01	-2.894301383165725494e-01	-1.190980915188503531e+01
1.153575000000000195e+01	-2.898091628902924599e-01	-1.190427298917511933e+01
1.153930000000000078e+01	-2.901884237256183718e-01	-1.189874084302386237e+01
1.154285000000000139e+01	-2.905679215435681417e-01	-1.189321270604599690e+01
1.154640000000000200e+01	-2.909476570577616550e-01	-1.188768857087421438e+01
1.154995000000000083e+01	-2.913276309744712300e-01	-1.188216843015910129e+01
1.155350000000000144e+01	-2.917078439926861777e-01	-1.187665227656907696e+01
1.155705000000000027e+01	-2.920882968041510486e-01	-1.187114010279032250e+01
1.156060000000000088e+01	-2.924689900934241416e-01	-1.186563190152673464e+01
1.156415000000000148e+01	-2.928499245379190263e-01	-1.186012766549985997e+01
1.156770000000000209e+01	-2.932311008079699355e-01	-1.185462738744882927e+01
1.157125000000000092e+01	-2.936125195668662924e-01	-1.184913106013030060e+01
1.157480000000000153e+01	-2.939941814709133294e-01	-1.184363867631839895e+01
1.157835000000000036e+01	-2.943760871694792725e-01	-1.183815022880466294e+01
1.158190000000000097e+01	-2.947582373050410820e-01	-1.183266571039795778e+01
1.158545000000000158e+01	-2.951406325132351904e-01	-1.182718511392446104e+01
1.158900000000000041e+01	-2.955232734229145120e-01	-1.182170843222756496e+01
1.159255000000000102e+01	-2.959061606561824154e-01	-1.181623565816781785e+01
1.159610000000000163e+01	-2.962892948284562844e-01	-1.181076678462290097e+01
1.159965000000000046e+01	-2.966726765485067641e-01	-1.180530180448753086e+01
1.160320000000000107e+01	-2.970563064185047231e-01	-1.179984071067340778e+01
1.160675000000000168e+01	-2.974401850340785969e-01	-1.179438349610918380e+01
1.161030000000000051e+01	-2.978243129843480830e-01	-1.178893015374036857e+01
1.161385000000000112e+01	-2.982086908519908652e-01	-1.178348067652929210e+01
1.161740000000000173e+01	-2.985933192132710357e-01	-1.177803505745504609e+01
1.162095000000000056e+01	-2.989781986380918299e-01	-1.177259328951341644e+01
1.162450000000000117e+01	-2.993633296900484186e-01	-1.176715536571682463e+01
1.162805000000000177e+01	-2.997487129264693184e-01	-1.176172127909429577e+01
1.163160000000000061e+01	-3.001343488984602459e-01	-1.175629102269136261e+01
1.163515000000000121e+01	-3.005202381509596843e-01	-1.175086458957004254e+01
1.163870000000000182e+01	-3.009063812227727452e-01	-1.174544197280875224e+01
1.164225000000000065e+01	-3.012927786466246260e-01	-1.174002316550227754e+01
1.164580000000000126e+01	-3.016794309492065174e-01	-1.173460816076169877e+01
1.164935000000000187e+01	-3.020663386512172921e-01	-1.172919695171433752e+01
1.165290000000000070e+01	-3.024535022674061935e-01	-1.172378953150371039e+01
1.165645000000000131e+01	-3.028409223066226286e-01	-1.171838589328945623e+01
1.166000000000000192e+01	-3.032285992718628531e-01	-1.171298603024729701e+01
1.166355000000000075e+01	-3.036165336603078302e-01	-1.170758993556897209e+01
1.166710000000000136e+01	-3.040047259633699150e-01	-1.170219760246218321e+01
1.167065000000000197e+01	-3.043931766667387073e-01	-1.169680902415055179e+01
1.167420000000000080e+01	-3.047818862504227955e-01	-1.169142419387354437e+01
1.167775000000000141e+01	-3.051708551887936105e-01	-1.168604310488642994e+01
1.168130000000000202e+01	-3.055600839506292798e-01	-1.168066575046022493e+01
1.168485000000000085e+01	-3.059495729991592028e-01	-1.167529212388163629e+01
1.168840000000000146e+01	-3.063393227921012985e-01	-1.166992221845300293e+01
1.169195000000000206e+01	-3.067293337817104670e-01	-1.166455602749225662e+01
1.169550000000000090e+01	-3.071196064148246641e-01	-1.165919354433285271e+01
1.169905000000000150e+01	-3.075101411328916567e-01	-1.165383476232372217e+01
1.170260000000000034e+01	-3.079009383720329174e-01	-1.164847967482921831e+01
1.170615000000000094e+01	-3.082919985630656612e-01	-1.164312827522905813e+01
1.170970000000000155e+01	-3.086833221315555265e-01	-1.163778055691827795e+01
1.171325000000000038e+01	-3.090749094978604283e-01	-1.163243651330718542e+01
1.171680000000000099e+01	-3.094667610771586475e-01	-1.162709613782128670e+01
1.172035000000000160e+01	-3.098588772795069501e-01	-1.162175942390125272e+01
1.172390000000000043e+01	-3.102512585098698428e-01	-1.161642636500285164e+01
1.172745000000000104e+01	-3.106439051681612051e-01	-1.161109695459690982e+01
1.173100000000000165e+01	-3.110368176492909198e-01	-1.160577118616925851e+01
1.173455000000000048e+01	-3.114299963432007878e-01	-1.160044905322066988e+01
1.173810000000000109e+01	-3.118234416349046079e-01	-1.159513054926682152e+01
1.174165000000000170e+01	-3.122171539045341948e-01	-1.158981566783822714e+01
1.174520000000000053e+01	-3.126111335273631386e-01	-1.158450440248021707e+01
1.174875000000000114e+01	-3.130053808738730292e-01	-1.157919674675283517e+01
1.175230000000000175e+01	-3.133998963097673340e-01	-1.157389269423084244e+01
1.175585000000000058e+01	-3.137946801960205256e-01	-1.156859223850363705e+01
1.175940000000000119e+01	-3.141897328889249330e-01	-1.156329537317519929e+01
1.176295000000000179e+01	-3.145850547401158326e-01	-1.155800209186406313e+01
1.176650000000000063e+01	-3.149806460966186883e-01	-1.155271238820325408e+01
1.177005000000000123e+01	-3.153765073008846787e-01	-1.154742625584022697e+01
1.177360000000000184e+01	-3.157726386908363825e-01	-1.154214368843683935e+01
1.177715000000000067e+01	-3.161690405998895392e-01	-1.153686467966929463e+01
1.178070000000000128e+01	-3.165657133570127790e-01	-1.153158922322807634e+01
1.178425000000000189e+01	-3.169626572867445535e-01	-1.152631731281792149e+01
1.178780000000000072e+01	-3.173598727092433180e-01	-1.152104894215776199e+01
1.179135000000000133e+01	-3.177573599403261673e-01	-1.151578410498066773e+01
1.179490000000000194e+01	-3.181551192914949255e-01	-1.151052279503381826e+01
1.179845000000000077e+01	-3.185531510699857738e-01	-1.150526500607842806e+01
1.180200000000000138e+01	-3.189514555787991701e-01	-1.150001073188972356e+01
1.180555000000000199e+01	-3.193500331167372641e-01	-1.149475996625687380e+01
1.180910000000000082e+01	-3.197488839784473069e-01	-1.148951270298296379e+01
1.181265000000000143e+01	-3.201480084544449656e-01	-1.148426893588492526e+01
1.181620000000000203e+01	-3.205474068311631730e-01	-1.147902865879349754e+01
1.181975000000000087e+01	-3.209470793909804942e-01	-1.147379186555319563e+01
1.182330000000000148e+01	-3.213470264122622044e-01	-1.146855855002223024e+01
1.182685000000000031e+01	-3.217472481693914310e-01	-1.146332870607249532e+01
1.183040000000000092e+01	-3.221477449328136178e-01	-1.145810232758949176e+01
1.183395000000000152e+01	-3.225485169690551768e-01	-1.145287940847230246e+01
1.183750000000000213e+01	-3.229495645407793880e-01	-1.144765994263353726e+01
1.184105000000000096e+01	-3.233508879068059949e-01	-1.144244392399928145e+01
1.184460000000000157e+01	-3.237524873221508392e-01	-1.143723134650906026e+01
1.184815000000000040e+01	-3.241543630380656071e-01	-1.143202220411578374e+01
1.185170000000000101e+01	-3.245565153020687488e-01	-1.142681649078569883e+01
1.185525000000000162e+01	-3.249589443579760095e-01	-1.142161420049836096e+01
1.185880000000000045e+01	-3.253616504459405090e-01	-1.141641532724657004e+01
1.186235000000000106e+01	-3.257646338024828836e-01	-1.141121986503632968e+01
1.186590000000000167e+01	-3.261678946605327534e-01	-1.140602780788680981e+01
