Frequency	S11(dB)	S21(dB)
1.095000000000000107e+01	-3.957623865288456566e-05	-6.882322784394909831e+01
1.097905000000000086e+01	-1.300765449754803175e-04	-6.855218004148447619e+01
1.100810000000000066e+01	-2.084181138419094600e-04	-6.827678797178707271e+01
1.103715000000000046e+01	-2.755035898559995153e-04	-6.799684206493138561e+01
1.106620000000000026e+01	-3.321841214656883270e-04	-6.771211768868461434e+01
1.109525000000000183e+01	-3.792620188544252929e-04	-6.742237368649364271e+01
1.112430000000000163e+01	-4.174932605751084289e-04	-6.712735073044109413e+01
1.115335000000000143e+01	-4.475898919817998642e-04	-6.682676946058451506e+01
1.118240000000000123e+01	-4.702222921897623604e-04	-6.652032837674080668e+01
1.121145000000000103e+01	-4.860213347289738146e-04	-6.620770144236021792e+01
1.124050000000000082e+01	-4.955804371144302859e-04	-6.588853535218824220e+01
1.126955000000000062e+01	-4.994575150539166432e-04	-6.556244640570960769e+01
1.129860000000000042e+01	-4.981768430724200581e-04	-6.522901691629942889e+01
1.132765000000000022e+01	-4.922308066723061776e-04	-6.488779107106344668e+01
1.135670000000000179e+01	-4.820815986938638341e-04	-6.453827013756740882e+01
1.138575000000000159e+01	-4.681628131627126152e-04	-6.417990689003414673e+01
1.141480000000000139e+01	-4.508810012545080349e-04	-6.381209909760654853e+01
1.144385000000000119e+01	-4.306171056028112727e-04	-6.343418187893007598e+01
1.147290000000000099e+01	-4.077278947982885594e-04	-6.304541867794590360e+01
1.150195000000000078e+01	-3.825473179052345891e-04	-6.264499055160886343e+01
1.153100000000000058e+01	-3.553878038323537384e-04	-6.223198337622476117e+01
1.156005000000000038e+01	-3.265415604329752718e-04	-6.180537246781067040e+01
1.158910000000000018e+01	-2.962818415471822728e-04	-6.136400396318441608e+01
1.161815000000000175e+01	-2.648642176418828319e-04	-6.090657210755495043e+01
1.164720000000000155e+01	-2.325278675518215651e-04	-6.043159131944780427e+01
1.167625000000000135e+01	-1.994969624664684102e-04	-5.993736152299852193e+01
1.170530000000000115e+01	-1.659821480426441811e-04	-5.942192470263772464e+01
1.173435000000000095e+01	-1.321822380128299880e-04	-5.888300987196079461e+01
1.176340000000000074e+01	-9.828625225841002976e-05	-5.831796254156228088e+01
1.179245000000000054e+01	-6.447597486392928220e-05	-5.772365313505802931e+01
1.182150000000000034e+01	-3.092938383271624987e-05	-5.709635633657328668e+01
1.185055000000000014e+01	-9.643274665532871356e-16	-5.643158955006484234e+01
1.187960000000000171e+01	0.000000000000000000e+00	-5.572389263590068254e+01
1.190865000000000151e+01	0.000000000000000000e+00	-5.496652130153596261e+01
1.193770000000000131e+01	-9.643274665532871356e-16	-5.415101006898488123e+01
1.196675000000000111e+01	0.000000000000000000e+00	-5.326653203611878951e+01
1.199580000000000091e+01	-9.643274665532871356e-16	-5.229893036358057401e+01
1.202485000000000070e+01	0.000000000000000000e+00	-5.122919623564541780e+01
1.205390000000000050e+01	0.000000000000000000e+00	-5.003096410879980027e+01
1.208295000000000030e+01	0.000000000000000000e+00	-4.866614818124126174e+01
1.211200000000000188e+01	0.000000000000000000e+00	-4.707677036864063069e+01
1.214105000000000167e+01	0.000000000000000000e+00	-4.516812509613443893e+01
1.217010000000000147e+01	0.000000000000000000e+00	-4.276919416648200922e+01
1.219915000000000127e+01	-7.438534838851789093e-05	-3.951912639330910082e+01
1.222820000000000107e+01	-1.114792959925119944e-03	-3.440768627615349118e+01
1.225725000000000087e+01	-3.378599877863445317e-02	-2.110734007312500182e+01
1.228630000000000067e+01	-5.186667782229053940e-03	-2.924292151600950973e+01
1.231535000000000046e+01	-6.374734905889005042e-04	-3.669780669085518099e+01
1.234440000000000026e+01	-1.434961367626943934e-05	-4.060285848593907332e+01
1.237345000000000184e+01	0.000000000000000000e+00	-4.328199334883319693e+01
1.240250000000000163e+01	1.928654933106573877e-15	-4.532910642991442529e+01
1.243155000000000143e+01	-9.643274665532871356e-16	-4.697100458934592382e+01
1.246060000000000123e+01	0.000000000000000000e+00	-4.832726921401524578e+01
1.248965000000000103e+01	0.000000000000000000e+00	-4.947572136155226019e+01
1.251870000000000083e+01	0.000000000000000000e+00	-5.046874304497457331e+01
1.254775000000000063e+01	-9.643274665532871356e-16	-5.134184560736683522e+01
1.257680000000000042e+01	0.000000000000000000e+00	-5.211969727031512178e+01
1.260585000000000022e+01	0.000000000000000000e+00	-5.282000210357129788e+01
1.263490000000000180e+01	0.000000000000000000e+00	-5.345587904664402856e+01
1.266395000000000159e+01	-9.643274665532871356e-16	-5.403732665001118818e+01
1.269300000000000139e+01	0.000000000000000000e+00	-5.457214920117191070e+01
1.272205000000000119e+01	0.000000000000000000e+00	-5.506656193200358018e+01
1.275110000000000099e+01	0.000000000000000000e+00	-5.552559956100367344e+01
1.278015000000000079e+01	0.000000000000000000e+00	-5.595340034204828328e+01
1.280920000000000059e+01	0.000000000000000000e+00	-5.635340876989162240e+01
1.283825000000000038e+01	0.000000000000000000e+00	-5.672852357116160249e+01
1.286730000000000018e+01	0.000000000000000000e+00	-5.708120792362577589e+01
1.289635000000000176e+01	1.928654933106573877e-15	-5.741357299321167318e+01
1.292540000000000155e+01	0.000000000000000000e+00	-5.772744223438692757e+01
1.295445000000000135e+01	-9.643274665532871356e-16	-5.802440156874684618e+01
1.298350000000000115e+01	0.000000000000000000e+00	-5.830583902813888386e+01
1.301255000000000095e+01	0.000000000000000000e+00	-5.857297642318749098e+01
1.304160000000000075e+01	0.000000000000000000e+00	-5.882689489689812490e+01
1.307065000000000055e+01	0.000000000000000000e+00	-5.906855573312402896e+01
1.309970000000000034e+01	0.000000000000000000e+00	-5.929881744342008432e+01
1.312875000000000014e+01	0.000000000000000000e+00	-5.951844990610321418e+01
1.315780000000000172e+01	0.000000000000000000e+00	-5.972814614912582698e+01
1.318684999999999974e+01	0.000000000000000000e+00	-5.992853223404890173e+01
1.321590000000000131e+01	0.000000000000000000e+00	-6.012017559773467923e+01
1.324495000000000111e+01	-1.928654933106574271e-15	-6.030359213247904648e+01
1.327400000000000091e+01	0.000000000000000000e+00	-6.047925222712844828e+01
1.330305000000000071e+01	-9.643274665532871356e-16	-6.064758594736670716e+01
1.333210000000000051e+01	-1.928654933106574271e-15	-6.080898749853466967e+01
1.336115000000000030e+01	-9.643274665532871356e-16	-6.096381908701361851e+01
1.339020000000000010e+01	0.000000000000000000e+00	-6.111241427526832126e+01
1.341925000000000168e+01	0.000000000000000000e+00	-6.125508090800180838e+01
1.344829999999999970e+01	0.000000000000000000e+00	-6.139210367387930489e+01
1.347735000000000127e+01	0.000000000000000000e+00	-6.152374635583481677e+01
1.350640000000000107e+01	0.000000000000000000e+00	-6.165025381448413100e+01
1.353545000000000087e+01	0.000000000000000000e+00	-6.177185374165735254e+01
1.356450000000000067e+01	0.000000000000000000e+00	-6.188875821539829758e+01
1.359355000000000047e+01	-9.643274665532871356e-16	-6.200116508282078343e+01
1.362260000000000026e+01	0.000000000000000000e+00	-6.210925919311747379e+01
1.365165000000000006e+01	0.000000000000000000e+00	-6.221321349992408756e+01
1.368070000000000164e+01	0.000000000000000000e+00	-6.231319004920712246e+01
1.370974999999999966e+01	0.000000000000000000e+00	-6.240934086670125680e+01
1.373880000000000123e+01	-9.643274665532871356e-16	-6.250180875689150639e+01
1.376785000000000103e+01	0.000000000000000000e+00	-6.259072802392921631e+01
1.379690000000000083e+01	-9.643274665532871356e-16	-6.267622512343212549e+01
1.382595000000000063e+01	0.000000000000000000e+00	-6.275841925298828983e+01
1.385500000000000043e+01	-2.512384111244318116e-07	-6.283742288813940036e+01
1.388405000000000022e+01	-2.107647056622286187e-05	-6.291334226976857025e+01
1.391310000000000002e+01	-4.188580730170218249e-05	-6.298627784809497854e+01
1.394215000000000160e+01	-6.265751888560415473e-05	-6.305632468780434152e+01
1.397119999999999962e+01	-8.337049565334589114e-05	-6.312357283833961219e+01
1.400025000000000119e+01	-1.040042483191011780e-04	-6.318810767287156693e+01
1.402930000000000099e+01	-1.245389078488463841e-04	-6.325001019907440281e+01
1.405835000000000079e+01	-1.449552248410092520e-04	-6.330935734446513408e+01
1.408740000000000059e+01	-1.652345687637559249e-04	-6.336622221876149297e+01
1.411645000000000039e+01	-1.853589247112865702e-04	-6.342067435543927445e+01
1.414550000000000018e+01	-2.053108940071195795e-04	-6.347277993442516930e+01
1.417454999999999998e+01	-2.250736879317477047e-04	-6.352260198767610433e+01
1.420360000000000156e+01	-2.446311271969515760e-04	-6.357020058916436511e+01
1.423264999999999958e+01	-2.639676352059048994e-04	-6.361563303069480213e+01
1.426170000000000115e+01	-2.830682389085555713e-04	-6.365895398477135814e+01
1.429075000000000095e+01	-3.019185574289598483e-04	-6.370021565564611876e+01
1.431980000000000075e+01	-3.205048022079314777e-04	-6.373946791956727509e+01
1.434885000000000055e+01	-3.388137720885347993e-04	-6.377675845509887864e+01
1.437790000000000035e+01	-3.568328406383014430e-04	-6.381213286439933086e+01
1.440695000000000014e+01	-3.745499600679944052e-04	-6.384563478613274867e+01
1.443599999999999994e+01	-3.919536476209346419e-04	-6.387730600070950970e+01
1.446505000000000152e+01	-4.090329797445145044e-04	-6.390718652851820281e+01
1.449409999999999954e+01	-4.257775901025876841e-04	-6.393531472160550067e+01
1.452315000000000111e+01	-4.421776558319023267e-04	-6.396172734937237436e+01
1.455220000000000091e+01	-4.582238950341503713e-04	-6.398645967875381757e+01
1.458125000000000071e+01	-4.739075577331316796e-04	-6.400954554925542084e+01
1.461030000000000051e+01	-4.892204168074760747e-04	-6.403101744326211531e+01
1.463935000000000031e+01	-5.041547607823531696e-04	-6.405090655195171223e+01
1.466840000000000011e+01	-5.187033888591857612e-04	-6.406924283713891555e+01
1.469744999999999990e+01	-5.328595955846364071e-04	-6.408605508934205375e+01
1.472650000000000148e+01	-5.466171723216983616e-04	-6.410137098234375230e+01
1.475554999999999950e+01	-5.599703865414802683e-04	-6.411521712446463539e+01
1.478460000000000107e+01	-5.729139865493539097e-04	-6.412761910683695987e+01
1.481365000000000087e+01	-5.854431817471032057e-04	-6.413860154880258335e+01
1.484270000000000067e+01	-5.975536386508612701e-04	-6.414818814071347219e+01
1.487175000000000047e+01	-6.092414745295482003e-04	-6.415640168421597878e+01
1.490080000000000027e+01	-6.205032418271762360e-04	-6.416326413030741094e+01
1.492985000000000007e+01	-6.313359231853827528e-04	-6.416879661515285704e+01
1.495889999999999986e+01	-6.417369279295766660e-04	-6.417301949396475891e+01
1.498795000000000144e+01	-6.517040694432405662e-04	-6.417595237294987953e+01
1.501699999999999946e+01	-6.612355664994181564e-04	-6.417761413952669614e+01
1.504605000000000103e+01	-6.703300308241109647e-04	-6.417802299084313233e+01
1.507510000000000083e+01	-6.789864639281746519e-04	-6.417719646076977824e+01
1.510415000000000063e+01	-6.872042366423213684e-04	-6.417515144543857275e+01
1.513320000000000043e+01	-6.949830883506455219e-04	-6.417190422739103894e+01
1.516225000000000023e+01	-7.023231180244937470e-04	-6.416747049841683292e+01
1.519130000000000180e+01	-7.092247652666908890e-04	-6.416186538124131289e+01
1.522034999999999982e+01	-7.156888176760040771e-04	-6.415510345001229098e+01
1.524940000000000140e+01	-7.217163865093745951e-04	-6.414719874969765101e+01
1.527844999999999942e+01	-7.273089075775321941e-04	-6.413816481453110896e+01
1.530750000000000099e+01	-7.324681284554125475e-04	-6.412801468541678673e+01
1.533655000000000079e+01	-7.371960988950944458e-04	-6.411676092650994008e+01
1.536560000000000059e+01	-7.414951669863616970e-04	-6.410441564083188837e+01
1.539465000000000039e+01	-7.453679560915178401e-04	-6.409099048520599240e+01
1.542370000000000019e+01	-7.488173803756444308e-04	-6.407649668428774703e+01
1.545275000000000176e+01	-7.518466112645763068e-04	-6.406094504396180866e+01
1.548179999999999978e+01	-7.544590856674077053e-04	-6.404434596400997748e+01
1.551085000000000136e+01	-7.566584920019413631e-04	-6.402670945012603454e+01
1.553989999999999938e+01	-7.584487572904412929e-04	-6.400804512532120327e+01
1.556895000000000095e+01	-7.598340436447256676e-04	-6.398836224071772705e+01
1.559800000000000075e+01	-7.608187404739375024e-04	-6.396766968578124590e+01
1.562705000000000055e+01	-7.614074598535152619e-04	-6.394597599802925458e+01
1.565610000000000035e+01	-7.616050141835629039e-04	-6.392328937222957563e+01
1.568515000000000015e+01	-7.614164228874739562e-04	-6.389961766908638197e+01
1.571420000000000172e+01	-7.608468987632791046e-04	-6.387496842352081217e+01
1.574324999999999974e+01	-7.599018401040099051e-04	-6.384934885239761115e+01
1.577230000000000132e+01	-7.585868232828178997e-04	-6.382276586196842061e+01
1.580134999999999934e+01	-7.569075924457492740e-04	-6.379522605478149444e+01
1.583040000000000092e+01	-7.548700607494236541e-04	-6.376673573628583114e+01
1.585945000000000071e+01	-7.524802893622197647e-04	-6.373730092100979050e+01
1.588850000000000051e+01	-7.497444913433762466e-04	-6.370692733843326749e+01
1.591755000000000031e+01	-7.466690237678041747e-04	-6.367562043846554332e+01
1.594660000000000011e+01	-7.432603677967126099e-04	-6.364338539660942473e+01
1.597565000000000168e+01	-7.395251383469425089e-04	-6.361022711882420566e+01
1.600469999999999970e+01	-7.354700689922962550e-04	-6.357615024606053566e+01
1.603375000000000128e+01	-7.311020040844529036e-04	-6.354115915849646257e+01
1.606279999999999930e+01	-7.264278927786011310e-04	-6.350525797950605522e+01
1.609185000000000088e+01	-7.214547850583048847e-04	-6.346845057931420797e+01
1.612089999999999890e+01	-7.161898263658532382e-04	-6.343074057845272762e+01
1.614995000000000047e+01	-7.106402397522517018e-04	-6.339213135085130801e+01
1.617900000000000205e+01	-7.048133373124434824e-04	-6.335262602678137966e+01
1.620805000000000007e+01	-6.987164988664148080e-04	-6.331222749546490292e+01
1.623710000000000164e+01	-6.923571714599751226e-04	-6.327093840749731868e+01
1.626614999999999966e+01	-6.857428682792141884e-04	-6.322876117703713561e+01
1.629520000000000124e+01	-6.788811525357435787e-04	-6.318569798370351975e+01
1.632424999999999926e+01	-6.717796391298416683e-04	-6.314175077431379890e+01
1.635330000000000084e+01	-6.644459887421212164e-04	-6.309692126437401072e+01
1.638235000000000241e+01	-6.568878959247733762e-04	-6.305121093936531196e+01
1.641140000000000043e+01	-6.491130906106173069e-04	-6.300462105577441463e+01
1.644044999999999845e+01	-6.411293313553700565e-04	-6.295715264196640959e+01
1.646950000000000003e+01	-6.329443963831142420e-04	-6.290880649881215447e+01
1.649855000000000160e+01	-6.245660824222721424e-04	-6.285958320012240108e+01
1.652759999999999962e+01	-6.160021953327142388e-04	-6.280948309287906284e+01
1.655665000000000120e+01	-6.072605515978592768e-04	-6.275850629723084495e+01
1.658569999999999922e+01	-5.983489669325313962e-04	-6.270665270633568866e+01
1.661475000000000080e+01	-5.892752560075117376e-04	-6.265392198596603635e+01
1.664379999999999882e+01	-5.800472244474550723e-04	-6.260031357389610918e+01
1.667285000000000039e+01	-5.706726657598590671e-04	-6.254582667913435756e+01
1.670190000000000197e+01	-5.611593602835586144e-04	-6.249046028089664162e+01
1.673094999999999999e+01	-5.515150621914167647e-04	-6.243421312740038331e+01
1.676000000000000156e+01	-5.417475057982877769e-04	-6.237708373446280774e+01
1.678904999999999959e+01	-5.318643938349835619e-04	-6.231907038383137376e+01
1.681810000000000116e+01	-5.218733950711473011e-04	-6.226017112137491694e+01
1.684714999999999918e+01	-5.117821451023612384e-04	-6.220038375501268746e+01
1.687620000000000076e+01	-5.015982321131984712e-04	-6.213970585244270239e+01
1.690525000000000233e+01	-4.913292040680523713e-04	-6.207813473858895037e+01
1.693430000000000035e+01	-4.809825599356977129e-04	-6.201566749293554182e+01
1.696334999999999837e+01	-4.705657460464158256e-04	-6.195230094649669184e+01
1.699239999999999995e+01	-4.600861533094417061e-04	-6.188803167865340527e+01
1.702145000000000152e+01	-4.495511160371547851e-04	-6.182285601366735506e+01
1.705049999999999955e+01	-4.389679034468375917e-04	-6.175677001698848301e+01
1.707955000000000112e+01	-4.283437211419165017e-04	-6.168976949130416187e+01
1.710859999999999914e+01	-4.176857072371251969e-04	-6.162184997227402761e+01
1.713765000000000072e+01	-4.070009275078152072e-04	-6.155300672404919027e+01
1.716669999999999874e+01	-3.962963743823846603e-04	-6.148323473447077703e+01
1.719575000000000031e+01	-3.855789626954549566e-04	-6.141252870999557700e+01
1.722480000000000189e+01	-3.748555295792448789e-04	-6.134088307028154219e+01
1.725384999999999991e+01	-3.641328284646426754e-04	-6.126829194251369870e+01
1.728290000000000148e+01	-3.534175276795125200e-04	-6.119474915534382120e+01
1.731194999999999951e+01	-3.427162110886248407e-04	-6.112024823253097594e+01
1.734100000000000108e+01	-3.320353705432854013e-04	-6.104478238621127417e+01
1.737004999999999910e+01	-3.213814075426636566e-04	-6.096834450979822861e+01
1.739910000000000068e+01	-3.107606302787528944e-04	-6.089092717050572645e+01
1.742815000000000225e+01	-3.001792507199689021e-04	-6.081252260144516697e+01
1.745720000000000027e+01	-2.896433832156044500e-04	-6.073312269335858105e+01
1.748624999999999829e+01	-2.791590418466653625e-04	-6.065271898584033039e+01
1.751529999999999987e+01	-2.687321408443810134e-04	-6.057130265814841152e+01
1.754435000000000144e+01	-2.583684893209708716e-04	-6.048886451952956378e+01
1.757339999999999947e+01	-2.480737935166614180e-04	-6.040539499901640852e+01
1.760245000000000104e+01	-2.378536527899863468e-04	-6.032088413471807087e+01
1.763149999999999906e+01	-2.277135587220334759e-04	-6.023532156255094350e+01
1.766055000000000064e+01	-2.176588936768263029e-04	-6.014869650436888548e+01
1.768959999999999866e+01	-2.076949305324554186e-04	-6.006099775549409969e+01
1.771865000000000023e+01	-1.978268298991339106e-04	-5.997221367160041439e+01
1.774770000000000181e+01	-1.880596401126806579e-04	-5.988233215489089645e+01
1.777674999999999983e+01	-1.783982964603939621e-04	-5.979134063959893552e+01
1.780580000000000140e+01	-1.688476191908995267e-04	-5.969922607667953685e+01
1.783484999999999943e+01	-1.594123134401717373e-04	-5.960597491774106516e+01
1.786390000000000100e+01	-1.500969690331589799e-04	-5.951157309809238427e+01
1.789294999999999902e+01	-1.409060582091817737e-04	-5.941600601892570666e+01
1.792200000000000060e+01	-1.318439369848432342e-04	-5.931925852853034087e+01
1.795105000000000217e+01	-1.229148432343109992e-04	-5.922131490250261265e+01
1.798010000000000019e+01	-1.141228972383172833e-04	-5.912215882289450519e+01
1.800914999999999822e+01	-1.054721010711195955e-04	-5.902177335623420618e+01
1.803819999999999979e+01	-9.696633854580839111e-05	-5.892014093033430555e+01
1.806725000000000136e+01	-8.860937510560097717e-05	-5.881724330983915650e+01
1.809629999999999939e+01	-8.040485806614184672e-05	-5.871306157040955753e+01
1.812535000000000096e+01	-7.235631680378430642e-05	-5.860757607145973225e+01
1.815439999999999898e+01	-6.446716269409208985e-05	-5.850076642737182198e+01
1.818345000000000056e+01	-5.674069007541026894e-05	-5.839261147706177724e+01
1.821249999999999858e+01	-4.918007640140751235e-05	-5.828308925180757427e+01
1.824155000000000015e+01	-4.178838309852370256e-05	-5.817217694121315219e+01
1.827060000000000173e+01	-3.456855634335130291e-05	-5.805985085718324967e+01
1.829964999999999975e+01	-2.752342807432198239e-05	-5.794608639577256071e+01
1.832870000000000132e+01	-2.065571697732685851e-05	-5.783085799676341310e+01
1.835774999999999935e+01	-1.396802993225589679e-05	-5.771413910080425325e+01
1.838680000000000092e+01	-7.462863518328333854e-06	-5.759590210394379284e+01
1.841584999999999894e+01	-1.142605331345338975e-06	-5.747611830936663324e+01
1.844490000000000052e+01	-9.643274665532871356e-16	-5.735475787612419651e+01
1.847395000000000209e+01	0.000000000000000000e+00	-5.723178976464054557e+01
